
T2FB0 000:302 SEGGER J-Link V5.10h Log File (0001ms, 0273ms total)
T2FB0 000:302 DLL Compiled: Jan 21 2016 19:24:29 (0001ms, 0273ms total)
T2FB0 000:302 Logging started @ 2025-01-22 17:06 (0001ms, 0273ms total)
T2FB0 000:303 JLINK_SetWarnOutHandler(...) (0000ms, 0273ms total)
T2FB0 000:303 JLINK_OpenEx(...)
Firmware: J-Link ARM-OB STM32 compiled Aug 22 2012 19:52:04
Hardware: V7.00
S/N: 20090928
Feature(s): RDI,FlashDL,FlashBP,JFlash,GDB  returns O.K. (0274ms, 0547ms total)
T2FB0 000:577 JLINK_SetErrorOutHandler(...) (0000ms, 0547ms total)
T2FB0 000:577 JLINK_ExecCommand("ProjectFile = "D:\Documents\GitHub\rt-thread-v5.1.0\bsp\stm32\stm32f103_rtt_bootloader\JLinkSettings.ini"", ...)  returns 0x00 (0001ms, 0548ms total)
T2FB0 000:587 JLINK_ExecCommand("Device = STM32F103RC", ...)Device "STM32F103RC" selected.  returns 0x00 (0006ms, 0554ms total)
T2FB0 000:593 JLINK_ExecCommand("DisableConnectionTimeout", ...)  returns 0x01 (0000ms, 0554ms total)
T2FB0 000:593 JLINK_GetHardwareVersion()  returns 0x11170 (0000ms, 0554ms total)
T2FB0 000:593 JLINK_GetDLLVersion()  returns 51008 (0000ms, 0554ms total)
T2FB0 000:593 JLINK_GetFirmwareString(...) (0000ms, 0554ms total)
T2FB0 000:609 JLINK_GetDLLVersion()  returns 51008 (0000ms, 0554ms total)
T2FB0 000:609 JLINK_GetCompileDateTime() (0000ms, 0554ms total)
T2FB0 000:611 JLINK_GetFirmwareString(...) (0000ms, 0554ms total)
T2FB0 000:613 JLINK_GetHardwareVersion()  returns 0x11170 (0000ms, 0554ms total)
T2FB0 000:620 JLINK_TIF_Select(JLINKARM_TIF_SWD)  returns 0x00 (0000ms, 0554ms total)
T2FB0 000:620 JLINK_SetSpeed(5000) (0001ms, 0555ms total)
T2FB0 000:621 JLINK_GetId() >0x108 TIF>Found SWD-DP with ID 0x1BA01477 >0x0D TIF> >0x28 TIF> >0x0D TIF> >0x28 TIF> >0x0D TIF> >0x28 TIF> >0x0D TIF> >0x28 TIF> >0x0D TIF> >0x21 TIF> >0x0D TIF> >0x28 TIF> >0x0D TIF> >0x28 TIF> >0x0D TIF> >0x28 TIF> >0x0D TIF> >0x21 TIF> >0x0D TIF> >0x21 TIF> >0x0D TIF> >0x28 TIF> >0x0D TIF> >0x21 TIF> >0x0D TIF> >0x21 TIF> >0x0D TIF> >0x28 TIF> >0x0D TIF> >0x21 TIF> >0x0D TIF> >0x21 TIF> >0x0D TIF> >0x28 TIF> >0x0D TIF> >0x21 TIF> >0x0D TIF> >0x21 TIF> >0x108 TIF>
Found SWD-DP with ID 0x1BA01477 >0x0D TIF> >0x28 TIF> >0x0D TIF> >0x28 TIF> >0x0D TIF> >0x28 TIF> >0x0D TIF> >0x28 TIF> >0x0D TIF> >0x21 TIF> >0x0D TIF> >0x28 TIF> >0x0D TIF> >0x28 TIF> >0x0D TIF> >0x21 TIF> >0x0D TIF> >0x21 TIF> >0x0D TIF> >0x21 TIF> >0x0D TIF> >0x28 TIF> >0x0D TIF> >0x28 TIF> >0x0D TIF> >0x28 TIF> >0x0D TIF> >0x21 TIF> >0x0D TIF> >0x21 TIF> >0x0D TIF> >0x28 TIF> >0x0D TIF> >0x21 TIF> >0x0D TIF> >0x21 TIF>Found Cortex-M3 r1p1, Little endian. -- CPU_ReadMem(4 bytes @ 0xE000EDF0)
 -- CPU_ReadMem(4 bytes @ 0xE0002000)FPUnit: 6 code (BP) slots and 2 literal slots -- CPU_ReadMem(4 bytes @ 0xE000EDFC) -- CPU_ReadMem(4 bytes @ 0xE0001000) -- CPU_WriteMem(4 bytes @ 0xE0001000) -- CPU_ReadMem(4 bytes @ 0xE000ED88) -- CPU_WriteMem(4 bytes @ 0xE000ED88) -- CPU_ReadMem(4 bytes @ 0xE000ED88) -- CPU_WriteMem(4 bytes @ 0xE000ED88)CoreSight components:ROMTbl 0 @ E00FF000 -- CPU_ReadMem(16 bytes @ 0xE00FF000) -- CPU_ReadMem(16 bytes @ 0xE000EFF0) -- CPU_ReadMem(16 bytes @ 0xE000EFE0)
ROMTbl 0 [0]: FFF0F000, CID: B105E00D, PID: 001BB000 SCS -- CPU_ReadMem(16 bytes @ 0xE0001FF0) -- CPU_ReadMem(16 bytes @ 0xE0001FE0)ROMTbl 0 [1]: FFF02000, CID: B105E00D, PID: 001BB002 DWT -- CPU_ReadMem(16 bytes @ 0xE0002FF0) -- CPU_ReadMem(16 bytes @ 0xE0002FE0)ROMTbl 0 [2]: FFF03000, CID: B105E00D, PID: 000BB003 FPB -- CPU_ReadMem(16 bytes @ 0xE0000FF0) -- CPU_ReadMem(16 bytes @ 0xE0000FE0)ROMTbl 0 [3]: FFF01000, CID: B105E00D, PID: 001BB001 ITM -- CPU_ReadMem(16 bytes @ 0xE00FF010)
 -- CPU_ReadMem(16 bytes @ 0xE0040FF0) -- CPU_ReadMem(16 bytes @ 0xE0040FE0)ROMTbl 0 [4]: FFF41000, CID: B105900D, PID: 001BB923 TPIU-Lite -- CPU_ReadMem(16 bytes @ 0xE0041FF0) -- CPU_ReadMem(16 bytes @ 0xE0041FE0)ROMTbl 0 [5]: FFF42000, CID: B105900D, PID: 101BB924 ETM-M3 >0x0D TIF> >0x21 TIF>  returns 0x1BA01477 (0076ms, 0631ms total)
T2FB0 000:697 JLINK_GetDLLVersion()  returns 51008 (0000ms, 0631ms total)
T2FB0 000:697 JLINK_CORE_GetFound()  returns 0x30000FF (0000ms, 0631ms total)
T2FB0 000:697 JLINK_GetDebugInfo(0x100) -- Value=0xE00FF000  returns 0x00 (0000ms, 0631ms total)
T2FB0 000:698 JLINK_GetDebugInfo(0x100) -- Value=0xE00FF000  returns 0x00 (0000ms, 0631ms total)
T2FB0 000:698 JLINK_GetDebugInfo(0x101) -- Value=0xE0041000  returns 0x00 (0000ms, 0631ms total)
T2FB0 000:698 JLINK_GetDebugInfo(0x102) -- Value=0x00000000  returns 0x00 (0000ms, 0631ms total)
T2FB0 000:698 JLINK_GetDebugInfo(0x103) -- Value=0xE0040000  returns 0x00 (0000ms, 0631ms total)
T2FB0 000:698 JLINK_GetDebugInfo(0x104) -- Value=0xE0000000  returns 0x00 (0000ms, 0631ms total)
T2FB0 000:698 JLINK_GetDebugInfo(0x105) -- Value=0xE0001000  returns 0x00 (0000ms, 0631ms total)
T2FB0 000:698 JLINK_GetDebugInfo(0x106) -- Value=0xE0002000  returns 0x00 (0000ms, 0631ms total)
T2FB0 000:698 JLINK_GetDebugInfo(0x107) -- Value=0xE000E000  returns 0x00 (0000ms, 0631ms total)
T2FB0 000:698 JLINK_GetDebugInfo(0x10C) -- Value=0xE000EDF0  returns 0x00 (0000ms, 0631ms total)
T2FB0 000:698 JLINK_ReadMemU32(0xE000ED00, 0x0001 Items, ...) -- CPU is running -- CPU_ReadMem(4 bytes @ 0xE000ED00) - Data: 31 C2 1F 41  returns 0x01 (0001ms, 0632ms total)
T2FB0 000:699 JLINK_SetResetType(JLINKARM_RESET_TYPE_NORMAL)  returns JLINKARM_RESET_TYPE_NORMAL (0000ms, 0632ms total)
T2FB0 000:699 JLINK_Reset() -- CPU is running -- CPU_WriteMem(4 bytes @ 0xE000EDF0) -- CPU is running -- CPU_WriteMem(4 bytes @ 0xE000EDFC) >0x35 TIF> -- CPU is running -- CPU_WriteMem(4 bytes @ 0xE000ED0C) -- CPU is running -- CPU_ReadMem(4 bytes @ 0xE000EDF0) -- CPU is running -- CPU_ReadMem(4 bytes @ 0xE000EDF0) -- CPU is running -- CPU_WriteMem(4 bytes @ 0xE000EDF0) -- CPU is running -- CPU_WriteMem(4 bytes @ 0xE000EDFC) -- CPU is running -- CPU_ReadMem(4 bytes @ 0xE000EDF0)
 -- CPU_WriteMem(4 bytes @ 0xE0002000) -- CPU_ReadMem(4 bytes @ 0xE000EDFC) -- CPU_ReadMem(4 bytes @ 0xE0001000) (0020ms, 0652ms total)
T2FB0 000:719 JLINK_Halt()  returns 0x00 (0000ms, 0652ms total)
T2FB0 000:719 JLINK_IsHalted()  returns TRUE (0000ms, 0652ms total)
T2FB0 000:719 JLINK_ReadMemU32(0xE000EDF0, 0x0001 Items, ...) -- CPU_ReadMem(4 bytes @ 0xE000EDF0) - Data: 03 00 03 00  returns 0x01 (0000ms, 0652ms total)
T2FB0 000:719 JLINK_WriteU32(0xE000EDF0, 0xA05F0003) -- CPU_WriteMem(4 bytes @ 0xE000EDF0)  returns 0x00 (0001ms, 0653ms total)
T2FB0 000:720 JLINK_WriteU32(0xE000EDFC, 0x01000000) -- CPU_WriteMem(4 bytes @ 0xE000EDFC)  returns 0x00 (0001ms, 0654ms total)
T2FB0 000:727 JLINK_GetHWStatus(...)  returns 0x00 (0000ms, 0654ms total)
T2FB0 000:731 JLINK_GetNumBPUnits(Type = 0xFFFFFF00)  returns 0x06 (0000ms, 0654ms total)
T2FB0 000:731 JLINK_GetNumBPUnits(Type = 0xF0)  returns 0x2000 (0000ms, 0654ms total)
T2FB0 000:731 JLINK_GetNumWPUnits()  returns 0x04 (0000ms, 0654ms total)
T2FB0 000:739 JLINK_GetSpeed()  returns 0xFA0 (0000ms, 0654ms total)
T2FB0 000:742 JLINK_ReadMemU32(0xE000E004, 0x0001 Items, ...) -- CPU_ReadMem(4 bytes @ 0xE000E004) - Data: 01 00 00 00  returns 0x01 (0001ms, 0655ms total)
T2FB0 000:743 JLINK_ReadMemU32(0xE000E004, 0x0001 Items, ...) -- CPU_ReadMem(4 bytes @ 0xE000E004) - Data: 01 00 00 00  returns 0x01 (0001ms, 0656ms total)
T2FB0 000:744 JLINK_WriteMem(0xE0001000, 0x001C Bytes, ...) - Data: 01 00 00 00 00 00 00 00 00 00 00 00 00 00 00 00 ... -- CPU_WriteMem(28 bytes @ 0xE0001000)  returns 0x1C (0001ms, 0657ms total)
T2FB0 000:745 JLINK_ReadMem (0xE0001000, 0x001C Bytes, ...) -- CPU_ReadMem(28 bytes @ 0xE0001000) - Data: 01 00 00 40 00 00 00 00 00 00 00 00 00 00 00 00 ...  returns 0x00 (0001ms, 0658ms total)
T2FB0 000:746 JLINK_Halt()  returns 0x00 (0000ms, 0658ms total)
T2FB0 000:746 JLINK_IsHalted()  returns TRUE (0000ms, 0658ms total)
T2FB0 000:749 JLINK_WriteMem(0x20000000, 0x0164 Bytes, ...) - Data: 00 BE 0A E0 0D 78 2D 06 68 40 08 24 40 00 00 D3 ... -- CPU_WriteMem(356 bytes @ 0x20000000)  returns 0x164 (0005ms, 0663ms total)
T2FB0 000:754 JLINK_WriteReg(R0, 0x08000000)  returns 0x00 (0000ms, 0663ms total)
T2FB0 000:754 JLINK_WriteReg(R1, 0x00B71B00)  returns 0x00 (0000ms, 0663ms total)
T2FB0 000:754 JLINK_WriteReg(R2, 0x00000001)  returns 0x00 (0000ms, 0663ms total)
T2FB0 000:754 JLINK_WriteReg(R3, 0x00000000)  returns 0x00 (0000ms, 0663ms total)
T2FB0 000:754 JLINK_WriteReg(R4, 0x00000000)  returns 0x00 (0000ms, 0663ms total)
T2FB0 000:754 JLINK_WriteReg(R5, 0x00000000)  returns 0x00 (0000ms, 0663ms total)
T2FB0 000:754 JLINK_WriteReg(R6, 0x00000000)  returns 0x00 (0000ms, 0663ms total)
T2FB0 000:754 JLINK_WriteReg(R7, 0x00000000)  returns 0x00 (0000ms, 0663ms total)
T2FB0 000:754 JLINK_WriteReg(R8, 0x00000000)  returns 0x00 (0000ms, 0663ms total)
T2FB0 000:754 JLINK_WriteReg(R9, 0x20000160)  returns 0x00 (0000ms, 0663ms total)
T2FB0 000:754 JLINK_WriteReg(R10, 0x00000000)  returns 0x00 (0001ms, 0664ms total)
T2FB0 000:755 JLINK_WriteReg(R11, 0x00000000)  returns 0x00 (0000ms, 0664ms total)
T2FB0 000:755 JLINK_WriteReg(R12, 0x00000000)  returns 0x00 (0000ms, 0664ms total)
T2FB0 000:755 JLINK_WriteReg(R13 (SP), 0x20001000)  returns 0x00 (0000ms, 0664ms total)
T2FB0 000:755 JLINK_WriteReg(R14, 0x20000001)  returns 0x00 (0000ms, 0664ms total)
T2FB0 000:755 JLINK_WriteReg(R15 (PC), 0x20000038)  returns 0x00 (0000ms, 0664ms total)
T2FB0 000:755 JLINK_WriteReg(XPSR, 0x01000000)  returns 0x00 (0000ms, 0664ms total)
T2FB0 000:755 JLINK_WriteReg(MSP, 0x20001000)  returns 0x00 (0000ms, 0664ms total)
T2FB0 000:755 JLINK_WriteReg(PSP, 0x20001000)  returns 0x00 (0000ms, 0664ms total)
T2FB0 000:755 JLINK_WriteReg(CFBP, 0x00000000)  returns 0x00 (0000ms, 0664ms total)
T2FB0 000:755 JLINK_SetBPEx(Addr = 0x20000000, Type = 0xFFFFFFF2) -- CPU_ReadMem(2 bytes @ 0x20000000)  returns 0x00000001 (0000ms, 0664ms total)
T2FB0 000:755 JLINK_Go() -- CPU_WriteMem(2 bytes @ 0x20000000) -- CPU_ReadMem(4 bytes @ 0xE0001000) -- CPU_WriteMem(4 bytes @ 0xE0002008) -- CPU_WriteMem(4 bytes @ 0xE000200C) -- CPU_WriteMem(4 bytes @ 0xE0002010) -- CPU_WriteMem(4 bytes @ 0xE0002014) -- CPU_WriteMem(4 bytes @ 0xE0002018) -- CPU_WriteMem(4 bytes @ 0xE000201C) -- CPU_WriteMem(4 bytes @ 0xE0001004) (0008ms, 0672ms total)
T2FB0 000:763 JLINK_IsHalted() -- CPU_ReadMem(2 bytes @ 0x20000000)  returns TRUE (0004ms, 0676ms total)
T2FB0 000:767 JLINK_ReadReg(R15 (PC))  returns 0x20000000 (0000ms, 0672ms total)
T2FB0 000:767 JLINK_ClrBPEx(BPHandle = 0x00000001)  returns 0x00 (0000ms, 0672ms total)
T2FB0 000:767 JLINK_ReadReg(R0)  returns 0x00000000 (0000ms, 0672ms total)
T2FB0 000:770 JLINK_WriteReg(R0, 0x08000000)  returns 0x00 (0000ms, 0672ms total)
T2FB0 000:770 JLINK_WriteReg(R1, 0x00B71B00)  returns 0x00 (0000ms, 0672ms total)
T2FB0 000:770 JLINK_WriteReg(R2, 0x00000001)  returns 0x00 (0000ms, 0672ms total)
T2FB0 000:770 JLINK_WriteReg(R3, 0x00000000)  returns 0x00 (0001ms, 0673ms total)
T2FB0 000:771 JLINK_WriteReg(R4, 0x00000000)  returns 0x00 (0000ms, 0673ms total)
T2FB0 000:771 JLINK_WriteReg(R5, 0x00000000)  returns 0x00 (0000ms, 0673ms total)
T2FB0 000:771 JLINK_WriteReg(R6, 0x00000000)  returns 0x00 (0000ms, 0673ms total)
T2FB0 000:771 JLINK_WriteReg(R7, 0x00000000)  returns 0x00 (0000ms, 0673ms total)
T2FB0 000:771 JLINK_WriteReg(R8, 0x00000000)  returns 0x00 (0000ms, 0673ms total)
T2FB0 000:771 JLINK_WriteReg(R9, 0x20000160)  returns 0x00 (0000ms, 0673ms total)
T2FB0 000:771 JLINK_WriteReg(R10, 0x00000000)  returns 0x00 (0000ms, 0673ms total)
T2FB0 000:771 JLINK_WriteReg(R11, 0x00000000)  returns 0x00 (0000ms, 0673ms total)
T2FB0 000:771 JLINK_WriteReg(R12, 0x00000000)  returns 0x00 (0000ms, 0673ms total)
T2FB0 000:771 JLINK_WriteReg(R13 (SP), 0x20001000)  returns 0x00 (0000ms, 0673ms total)
T2FB0 000:771 JLINK_WriteReg(R14, 0x20000001)  returns 0x00 (0000ms, 0673ms total)
T2FB0 000:771 JLINK_WriteReg(R15 (PC), 0x2000007C)  returns 0x00 (0000ms, 0673ms total)
T2FB0 000:771 JLINK_WriteReg(XPSR, 0x01000000)  returns 0x00 (0000ms, 0673ms total)
T2FB0 000:771 JLINK_WriteReg(MSP, 0x20001000)  returns 0x00 (0000ms, 0673ms total)
T2FB0 000:771 JLINK_WriteReg(PSP, 0x20001000)  returns 0x00 (0000ms, 0673ms total)
T2FB0 000:771 JLINK_WriteReg(CFBP, 0x00000000)  returns 0x00 (0000ms, 0673ms total)
T2FB0 000:771 JLINK_SetBPEx(Addr = 0x20000000, Type = 0xFFFFFFF2)  returns 0x00000002 (0000ms, 0673ms total)
T2FB0 000:771 JLINK_Go() -- CPU_ReadMem(4 bytes @ 0xE0001000) (0002ms, 0675ms total)
T2FB0 000:773 JLINK_IsHalted()  returns FALSE (0000ms, 0675ms total)
T2FB0 000:819 JLINK_IsHalted() -- CPU_ReadMem(2 bytes @ 0x20000000)  returns TRUE (0004ms, 0679ms total)
T2FB0 000:823 JLINK_ReadReg(R15 (PC))  returns 0x20000000 (0000ms, 0675ms total)
T2FB0 000:823 JLINK_ClrBPEx(BPHandle = 0x00000002)  returns 0x00 (0000ms, 0675ms total)
T2FB0 000:823 JLINK_ReadReg(R0)  returns 0x00000000 (0000ms, 0675ms total)
T2FB0 000:876 JLINK_WriteReg(R0, 0x00000001)  returns 0x00 (0000ms, 0675ms total)
T2FB0 000:876 JLINK_WriteReg(R1, 0x00B71B00)  returns 0x00 (0000ms, 0675ms total)
T2FB0 000:876 JLINK_WriteReg(R2, 0x00000001)  returns 0x00 (0000ms, 0675ms total)
T2FB0 000:876 JLINK_WriteReg(R3, 0x00000000)  returns 0x00 (0000ms, 0675ms total)
T2FB0 000:876 JLINK_WriteReg(R4, 0x00000000)  returns 0x00 (0000ms, 0675ms total)
T2FB0 000:876 JLINK_WriteReg(R5, 0x00000000)  returns 0x00 (0000ms, 0675ms total)
T2FB0 000:876 JLINK_WriteReg(R6, 0x00000000)  returns 0x00 (0000ms, 0675ms total)
T2FB0 000:876 JLINK_WriteReg(R7, 0x00000000)  returns 0x00 (0000ms, 0675ms total)
T2FB0 000:876 JLINK_WriteReg(R8, 0x00000000)  returns 0x00 (0001ms, 0676ms total)
T2FB0 000:877 JLINK_WriteReg(R9, 0x20000160)  returns 0x00 (0000ms, 0676ms total)
T2FB0 000:877 JLINK_WriteReg(R10, 0x00000000)  returns 0x00 (0000ms, 0676ms total)
T2FB0 000:877 JLINK_WriteReg(R11, 0x00000000)  returns 0x00 (0000ms, 0676ms total)
T2FB0 000:877 JLINK_WriteReg(R12, 0x00000000)  returns 0x00 (0000ms, 0676ms total)
T2FB0 000:877 JLINK_WriteReg(R13 (SP), 0x20001000)  returns 0x00 (0000ms, 0676ms total)
T2FB0 000:877 JLINK_WriteReg(R14, 0x20000001)  returns 0x00 (0000ms, 0676ms total)
T2FB0 000:877 JLINK_WriteReg(R15 (PC), 0x2000006A)  returns 0x00 (0000ms, 0676ms total)
T2FB0 000:877 JLINK_WriteReg(XPSR, 0x01000000)  returns 0x00 (0000ms, 0676ms total)
T2FB0 000:877 JLINK_WriteReg(MSP, 0x20001000)  returns 0x00 (0000ms, 0676ms total)
T2FB0 000:877 JLINK_WriteReg(PSP, 0x20001000)  returns 0x00 (0000ms, 0676ms total)
T2FB0 000:877 JLINK_WriteReg(CFBP, 0x00000000)  returns 0x00 (0000ms, 0676ms total)
T2FB0 000:877 JLINK_SetBPEx(Addr = 0x20000000, Type = 0xFFFFFFF2)  returns 0x00000003 (0000ms, 0676ms total)
T2FB0 000:877 JLINK_Go() -- CPU_ReadMem(4 bytes @ 0xE0001000) (0002ms, 0678ms total)
T2FB0 000:879 JLINK_IsHalted() -- CPU_ReadMem(2 bytes @ 0x20000000)  returns TRUE (0004ms, 0682ms total)
T2FB0 000:883 JLINK_ReadReg(R15 (PC))  returns 0x20000000 (0000ms, 0678ms total)
T2FB0 000:883 JLINK_ClrBPEx(BPHandle = 0x00000003)  returns 0x00 (0000ms, 0678ms total)
T2FB0 000:883 JLINK_ReadReg(R0)  returns 0x00000000 (0000ms, 0678ms total)
T2FB0 000:889 JLINK_WriteMem(0x20000000, 0x0164 Bytes, ...) - Data: 00 BE 0A E0 0D 78 2D 06 68 40 08 24 40 00 00 D3 ... -- CPU_WriteMem(356 bytes @ 0x20000000)  returns 0x164 (0005ms, 0683ms total)
T2FB0 000:894 JLINK_WriteReg(R0, 0x08000000)  returns 0x00 (0000ms, 0683ms total)
T2FB0 000:894 JLINK_WriteReg(R1, 0x00B71B00)  returns 0x00 (0000ms, 0683ms total)
T2FB0 000:894 JLINK_WriteReg(R2, 0x00000002)  returns 0x00 (0000ms, 0683ms total)
T2FB0 000:894 JLINK_WriteReg(R3, 0x00000000)  returns 0x00 (0000ms, 0683ms total)
T2FB0 000:894 JLINK_WriteReg(R4, 0x00000000)  returns 0x00 (0000ms, 0683ms total)
T2FB0 000:894 JLINK_WriteReg(R5, 0x00000000)  returns 0x00 (0000ms, 0683ms total)
T2FB0 000:894 JLINK_WriteReg(R6, 0x00000000)  returns 0x00 (0000ms, 0683ms total)
T2FB0 000:894 JLINK_WriteReg(R7, 0x00000000)  returns 0x00 (0000ms, 0683ms total)
T2FB0 000:894 JLINK_WriteReg(R8, 0x00000000)  returns 0x00 (0000ms, 0683ms total)
T2FB0 000:894 JLINK_WriteReg(R9, 0x20000160)  returns 0x00 (0000ms, 0683ms total)
T2FB0 000:894 JLINK_WriteReg(R10, 0x00000000)  returns 0x00 (0000ms, 0683ms total)
T2FB0 000:894 JLINK_WriteReg(R11, 0x00000000)  returns 0x00 (0000ms, 0683ms total)
T2FB0 000:894 JLINK_WriteReg(R12, 0x00000000)  returns 0x00 (0000ms, 0683ms total)
T2FB0 000:894 JLINK_WriteReg(R13 (SP), 0x20001000)  returns 0x00 (0000ms, 0683ms total)
T2FB0 000:894 JLINK_WriteReg(R14, 0x20000001)  returns 0x00 (0000ms, 0683ms total)
T2FB0 000:894 JLINK_WriteReg(R15 (PC), 0x20000038)  returns 0x00 (0000ms, 0683ms total)
T2FB0 000:894 JLINK_WriteReg(XPSR, 0x01000000)  returns 0x00 (0000ms, 0683ms total)
T2FB0 000:894 JLINK_WriteReg(MSP, 0x20001000)  returns 0x00 (0000ms, 0683ms total)
T2FB0 000:894 JLINK_WriteReg(PSP, 0x20001000)  returns 0x00 (0001ms, 0684ms total)
T2FB0 000:895 JLINK_WriteReg(CFBP, 0x00000000)  returns 0x00 (0000ms, 0684ms total)
T2FB0 000:895 JLINK_SetBPEx(Addr = 0x20000000, Type = 0xFFFFFFF2) -- CPU_ReadMem(2 bytes @ 0x20000000)  returns 0x00000004 (0000ms, 0684ms total)
T2FB0 000:895 JLINK_Go() -- CPU_WriteMem(2 bytes @ 0x20000000) -- CPU_ReadMem(4 bytes @ 0xE0001000) (0003ms, 0687ms total)
T2FB0 000:898 JLINK_IsHalted() -- CPU_ReadMem(2 bytes @ 0x20000000)  returns TRUE (0004ms, 0691ms total)
T2FB0 000:902 JLINK_ReadReg(R15 (PC))  returns 0x20000000 (0000ms, 0687ms total)
T2FB0 000:902 JLINK_ClrBPEx(BPHandle = 0x00000004)  returns 0x00 (0000ms, 0687ms total)
T2FB0 000:902 JLINK_ReadReg(R0)  returns 0x00000000 (0000ms, 0687ms total)
T2FB0 000:903 JLINK_WriteMem(0x20000164, 0x0400 Bytes, ...) - Data: D0 3C 00 20 1D 02 00 08 25 02 00 08 05 03 00 08 ... -- CPU_WriteMem(1024 bytes @ 0x20000164)  returns 0x400 (0012ms, 0699ms total)
T2FB0 000:915 JLINK_WriteReg(R0, 0x08000000)  returns 0x00 (0000ms, 0699ms total)
T2FB0 000:915 JLINK_WriteReg(R1, 0x00000400)  returns 0x00 (0000ms, 0699ms total)
T2FB0 000:915 JLINK_WriteReg(R2, 0x20000164)  returns 0x00 (0000ms, 0699ms total)
T2FB0 000:915 JLINK_WriteReg(R3, 0x00000000)  returns 0x00 (0000ms, 0699ms total)
T2FB0 000:915 JLINK_WriteReg(R4, 0x00000000)  returns 0x00 (0000ms, 0699ms total)
T2FB0 000:916 JLINK_WriteReg(R5, 0x00000000)  returns 0x00 (0000ms, 0700ms total)
T2FB0 000:916 JLINK_WriteReg(R6, 0x00000000)  returns 0x00 (0000ms, 0700ms total)
T2FB0 000:916 JLINK_WriteReg(R7, 0x00000000)  returns 0x00 (0000ms, 0700ms total)
T2FB0 000:916 JLINK_WriteReg(R8, 0x00000000)  returns 0x00 (0000ms, 0700ms total)
T2FB0 000:916 JLINK_WriteReg(R9, 0x20000160)  returns 0x00 (0000ms, 0700ms total)
T2FB0 000:916 JLINK_WriteReg(R10, 0x00000000)  returns 0x00 (0000ms, 0700ms total)
T2FB0 000:916 JLINK_WriteReg(R11, 0x00000000)  returns 0x00 (0000ms, 0700ms total)
T2FB0 000:916 JLINK_WriteReg(R12, 0x00000000)  returns 0x00 (0000ms, 0700ms total)
T2FB0 000:916 JLINK_WriteReg(R13 (SP), 0x20001000)  returns 0x00 (0000ms, 0700ms total)
T2FB0 000:916 JLINK_WriteReg(R14, 0x20000001)  returns 0x00 (0000ms, 0700ms total)
T2FB0 000:916 JLINK_WriteReg(R15 (PC), 0x200000F4)  returns 0x00 (0000ms, 0700ms total)
T2FB0 000:916 JLINK_WriteReg(XPSR, 0x01000000)  returns 0x00 (0000ms, 0700ms total)
T2FB0 000:916 JLINK_WriteReg(MSP, 0x20001000)  returns 0x00 (0000ms, 0700ms total)
T2FB0 000:916 JLINK_WriteReg(PSP, 0x20001000)  returns 0x00 (0000ms, 0700ms total)
T2FB0 000:916 JLINK_WriteReg(CFBP, 0x00000000)  returns 0x00 (0000ms, 0700ms total)
T2FB0 000:916 JLINK_SetBPEx(Addr = 0x20000000, Type = 0xFFFFFFF2)  returns 0x00000005 (0000ms, 0700ms total)
T2FB0 000:916 JLINK_Go() -- CPU_ReadMem(4 bytes @ 0xE0001000) (0002ms, 0702ms total)
T2FB0 000:918 JLINK_IsHalted()  returns FALSE (0001ms, 0703ms total)
T2FB0 000:935 JLINK_IsHalted()  returns FALSE (0000ms, 0702ms total)
T2FB0 000:937 JLINK_IsHalted()  returns FALSE (0000ms, 0702ms total)
T2FB0 000:939 JLINK_IsHalted()  returns FALSE (0000ms, 0702ms total)
T2FB0 000:941 JLINK_IsHalted()  returns FALSE (0000ms, 0702ms total)
T2FB0 000:943 JLINK_IsHalted()  returns FALSE (0000ms, 0702ms total)
T2FB0 000:947 JLINK_IsHalted()  returns FALSE (0000ms, 0702ms total)
T2FB0 000:949 JLINK_IsHalted() -- CPU_ReadMem(2 bytes @ 0x20000000)  returns TRUE (0004ms, 0706ms total)
T2FB0 000:953 JLINK_ReadReg(R15 (PC))  returns 0x20000000 (0000ms, 0702ms total)
T2FB0 000:953 JLINK_ClrBPEx(BPHandle = 0x00000005)  returns 0x00 (0000ms, 0702ms total)
T2FB0 000:953 JLINK_ReadReg(R0)  returns 0x00000000 (0000ms, 0702ms total)
T2FB0 000:953 JLINK_WriteMem(0x20000164, 0x0400 Bytes, ...) - Data: 05 21 02 D1 18 0E A0 EB 14 60 70 BD A3 42 DB D0 ... -- CPU_WriteMem(1024 bytes @ 0x20000164)  returns 0x400 (0012ms, 0714ms total)
T2FB0 000:966 JLINK_WriteReg(R0, 0x08000400)  returns 0x00 (0000ms, 0714ms total)
T2FB0 000:966 JLINK_WriteReg(R1, 0x00000400)  returns 0x00 (0000ms, 0714ms total)
T2FB0 000:966 JLINK_WriteReg(R2, 0x20000164)  returns 0x00 (0000ms, 0714ms total)
T2FB0 000:966 JLINK_WriteReg(R3, 0x00000000)  returns 0x00 (0000ms, 0714ms total)
T2FB0 000:966 JLINK_WriteReg(R4, 0x00000000)  returns 0x00 (0000ms, 0714ms total)
T2FB0 000:966 JLINK_WriteReg(R5, 0x00000000)  returns 0x00 (0000ms, 0714ms total)
T2FB0 000:966 JLINK_WriteReg(R6, 0x00000000)  returns 0x00 (0000ms, 0714ms total)
T2FB0 000:966 JLINK_WriteReg(R7, 0x00000000)  returns 0x00 (0000ms, 0714ms total)
T2FB0 000:966 JLINK_WriteReg(R8, 0x00000000)  returns 0x00 (0000ms, 0714ms total)
T2FB0 000:966 JLINK_WriteReg(R9, 0x20000160)  returns 0x00 (0000ms, 0714ms total)
T2FB0 000:966 JLINK_WriteReg(R10, 0x00000000)  returns 0x00 (0000ms, 0714ms total)
T2FB0 000:966 JLINK_WriteReg(R11, 0x00000000)  returns 0x00 (0000ms, 0714ms total)
T2FB0 000:966 JLINK_WriteReg(R12, 0x00000000)  returns 0x00 (0000ms, 0714ms total)
T2FB0 000:966 JLINK_WriteReg(R13 (SP), 0x20001000)  returns 0x00 (0000ms, 0714ms total)
T2FB0 000:966 JLINK_WriteReg(R14, 0x20000001)  returns 0x00 (0000ms, 0714ms total)
T2FB0 000:966 JLINK_WriteReg(R15 (PC), 0x200000F4)  returns 0x00 (0000ms, 0714ms total)
T2FB0 000:966 JLINK_WriteReg(XPSR, 0x01000000)  returns 0x00 (0000ms, 0714ms total)
T2FB0 000:966 JLINK_WriteReg(MSP, 0x20001000)  returns 0x00 (0000ms, 0714ms total)
T2FB0 000:966 JLINK_WriteReg(PSP, 0x20001000)  returns 0x00 (0000ms, 0714ms total)
T2FB0 000:966 JLINK_WriteReg(CFBP, 0x00000000)  returns 0x00 (0000ms, 0714ms total)
T2FB0 000:966 JLINK_SetBPEx(Addr = 0x20000000, Type = 0xFFFFFFF2)  returns 0x00000006 (0000ms, 0714ms total)
T2FB0 000:966 JLINK_Go() -- CPU_ReadMem(4 bytes @ 0xE0001000) (0003ms, 0717ms total)
T2FB0 000:969 JLINK_IsHalted()  returns FALSE (0001ms, 0718ms total)
T2FB0 000:972 JLINK_IsHalted()  returns FALSE (0000ms, 0717ms total)
T2FB0 000:974 JLINK_IsHalted()  returns FALSE (0000ms, 0717ms total)
T2FB0 000:976 JLINK_IsHalted()  returns FALSE (0000ms, 0717ms total)
T2FB0 000:980 JLINK_IsHalted()  returns FALSE (0000ms, 0717ms total)
T2FB0 000:982 JLINK_IsHalted()  returns FALSE (0001ms, 0718ms total)
T2FB0 000:985 JLINK_IsHalted()  returns FALSE (0000ms, 0717ms total)
T2FB0 000:987 JLINK_IsHalted()  returns FALSE (0000ms, 0717ms total)
T2FB0 000:989 JLINK_IsHalted()  returns FALSE (0000ms, 0717ms total)
T2FB0 000:991 JLINK_IsHalted()  returns FALSE (0000ms, 0717ms total)
T2FB0 000:993 JLINK_IsHalted()  returns FALSE (0000ms, 0717ms total)
T2FB0 000:995 JLINK_IsHalted()  returns FALSE (0000ms, 0717ms total)
T2FB0 000:997 JLINK_IsHalted()  returns FALSE (0000ms, 0717ms total)
T2FB0 000:999 JLINK_IsHalted()  returns FALSE (0000ms, 0717ms total)
T2FB0 001:001 JLINK_IsHalted() -- CPU_ReadMem(2 bytes @ 0x20000000)  returns TRUE (0003ms, 0720ms total)
T2FB0 001:004 JLINK_ReadReg(R15 (PC))  returns 0x20000000 (0000ms, 0717ms total)
T2FB0 001:004 JLINK_ClrBPEx(BPHandle = 0x00000006)  returns 0x00 (0000ms, 0717ms total)
T2FB0 001:004 JLINK_ReadReg(R0)  returns 0x00000000 (0000ms, 0717ms total)
T2FB0 001:005 JLINK_WriteMem(0x20000164, 0x0400 Bytes, ...) - Data: 4F F4 00 70 00 F0 3A FC 06 F0 04 FC 10 BD 00 00 ... -- CPU_WriteMem(1024 bytes @ 0x20000164)  returns 0x400 (0012ms, 0729ms total)
T2FB0 001:017 JLINK_WriteReg(R0, 0x08000800)  returns 0x00 (0000ms, 0729ms total)
T2FB0 001:017 JLINK_WriteReg(R1, 0x00000400)  returns 0x00 (0000ms, 0729ms total)
T2FB0 001:017 JLINK_WriteReg(R2, 0x20000164)  returns 0x00 (0000ms, 0729ms total)
T2FB0 001:017 JLINK_WriteReg(R3, 0x00000000)  returns 0x00 (0000ms, 0729ms total)
T2FB0 001:017 JLINK_WriteReg(R4, 0x00000000)  returns 0x00 (0000ms, 0729ms total)
T2FB0 001:017 JLINK_WriteReg(R5, 0x00000000)  returns 0x00 (0000ms, 0729ms total)
T2FB0 001:017 JLINK_WriteReg(R6, 0x00000000)  returns 0x00 (0000ms, 0729ms total)
T2FB0 001:017 JLINK_WriteReg(R7, 0x00000000)  returns 0x00 (0000ms, 0729ms total)
T2FB0 001:017 JLINK_WriteReg(R8, 0x00000000)  returns 0x00 (0000ms, 0729ms total)
T2FB0 001:017 JLINK_WriteReg(R9, 0x20000160)  returns 0x00 (0000ms, 0729ms total)
T2FB0 001:017 JLINK_WriteReg(R10, 0x00000000)  returns 0x00 (0000ms, 0729ms total)
T2FB0 001:017 JLINK_WriteReg(R11, 0x00000000)  returns 0x00 (0000ms, 0729ms total)
T2FB0 001:017 JLINK_WriteReg(R12, 0x00000000)  returns 0x00 (0000ms, 0729ms total)
T2FB0 001:017 JLINK_WriteReg(R13 (SP), 0x20001000)  returns 0x00 (0000ms, 0729ms total)
T2FB0 001:017 JLINK_WriteReg(R14, 0x20000001)  returns 0x00 (0000ms, 0729ms total)
T2FB0 001:017 JLINK_WriteReg(R15 (PC), 0x200000F4)  returns 0x00 (0000ms, 0729ms total)
T2FB0 001:017 JLINK_WriteReg(XPSR, 0x01000000)  returns 0x00 (0001ms, 0730ms total)
T2FB0 001:018 JLINK_WriteReg(MSP, 0x20001000)  returns 0x00 (0000ms, 0730ms total)
T2FB0 001:018 JLINK_WriteReg(PSP, 0x20001000)  returns 0x00 (0000ms, 0730ms total)
T2FB0 001:018 JLINK_WriteReg(CFBP, 0x00000000)  returns 0x00 (0000ms, 0730ms total)
T2FB0 001:018 JLINK_SetBPEx(Addr = 0x20000000, Type = 0xFFFFFFF2)  returns 0x00000007 (0000ms, 0730ms total)
T2FB0 001:018 JLINK_Go() -- CPU_ReadMem(4 bytes @ 0xE0001000) (0002ms, 0732ms total)
T2FB0 001:020 JLINK_IsHalted()  returns FALSE (0001ms, 0733ms total)
T2FB0 001:023 JLINK_IsHalted()  returns FALSE (0000ms, 0732ms total)
T2FB0 001:025 JLINK_IsHalted()  returns FALSE (0000ms, 0732ms total)
T2FB0 001:027 JLINK_IsHalted()  returns FALSE (0000ms, 0732ms total)
T2FB0 001:029 JLINK_IsHalted()  returns FALSE (0000ms, 0732ms total)
T2FB0 001:031 JLINK_IsHalted()  returns FALSE (0000ms, 0732ms total)
T2FB0 001:033 JLINK_IsHalted()  returns FALSE (0000ms, 0732ms total)
T2FB0 001:046 JLINK_IsHalted()  returns FALSE (0000ms, 0732ms total)
T2FB0 001:048 JLINK_IsHalted()  returns FALSE (0000ms, 0732ms total)
T2FB0 001:050 JLINK_IsHalted()  returns FALSE (0000ms, 0732ms total)
T2FB0 001:052 JLINK_IsHalted() -- CPU_ReadMem(2 bytes @ 0x20000000)  returns TRUE (0004ms, 0736ms total)
T2FB0 001:056 JLINK_ReadReg(R15 (PC))  returns 0x20000000 (0000ms, 0732ms total)
T2FB0 001:056 JLINK_ClrBPEx(BPHandle = 0x00000007)  returns 0x00 (0000ms, 0732ms total)
T2FB0 001:056 JLINK_ReadReg(R0)  returns 0x00000000 (0000ms, 0732ms total)
T2FB0 001:056 JLINK_WriteMem(0x20000164, 0x0400 Bytes, ...) - Data: 08 04 02 40 08 00 02 40 01 46 00 22 09 B9 01 20 ... -- CPU_WriteMem(1024 bytes @ 0x20000164)  returns 0x400 (0012ms, 0744ms total)
T2FB0 001:068 JLINK_WriteReg(R0, 0x08000C00)  returns 0x00 (0000ms, 0744ms total)
T2FB0 001:068 JLINK_WriteReg(R1, 0x00000400)  returns 0x00 (0000ms, 0744ms total)
T2FB0 001:068 JLINK_WriteReg(R2, 0x20000164)  returns 0x00 (0000ms, 0744ms total)
T2FB0 001:068 JLINK_WriteReg(R3, 0x00000000)  returns 0x00 (0000ms, 0744ms total)
T2FB0 001:068 JLINK_WriteReg(R4, 0x00000000)  returns 0x00 (0000ms, 0744ms total)
T2FB0 001:068 JLINK_WriteReg(R5, 0x00000000)  returns 0x00 (0000ms, 0744ms total)
T2FB0 001:068 JLINK_WriteReg(R6, 0x00000000)  returns 0x00 (0000ms, 0744ms total)
T2FB0 001:068 JLINK_WriteReg(R7, 0x00000000)  returns 0x00 (0001ms, 0745ms total)
T2FB0 001:069 JLINK_WriteReg(R8, 0x00000000)  returns 0x00 (0000ms, 0745ms total)
T2FB0 001:069 JLINK_WriteReg(R9, 0x20000160)  returns 0x00 (0000ms, 0745ms total)
T2FB0 001:069 JLINK_WriteReg(R10, 0x00000000)  returns 0x00 (0000ms, 0745ms total)
T2FB0 001:069 JLINK_WriteReg(R11, 0x00000000)  returns 0x00 (0000ms, 0745ms total)
T2FB0 001:069 JLINK_WriteReg(R12, 0x00000000)  returns 0x00 (0000ms, 0745ms total)
T2FB0 001:069 JLINK_WriteReg(R13 (SP), 0x20001000)  returns 0x00 (0000ms, 0745ms total)
T2FB0 001:069 JLINK_WriteReg(R14, 0x20000001)  returns 0x00 (0000ms, 0745ms total)
T2FB0 001:069 JLINK_WriteReg(R15 (PC), 0x200000F4)  returns 0x00 (0000ms, 0745ms total)
T2FB0 001:069 JLINK_WriteReg(XPSR, 0x01000000)  returns 0x00 (0000ms, 0745ms total)
T2FB0 001:069 JLINK_WriteReg(MSP, 0x20001000)  returns 0x00 (0000ms, 0745ms total)
T2FB0 001:069 JLINK_WriteReg(PSP, 0x20001000)  returns 0x00 (0000ms, 0745ms total)
T2FB0 001:069 JLINK_WriteReg(CFBP, 0x00000000)  returns 0x00 (0000ms, 0745ms total)
T2FB0 001:069 JLINK_SetBPEx(Addr = 0x20000000, Type = 0xFFFFFFF2)  returns 0x00000008 (0000ms, 0745ms total)
T2FB0 001:069 JLINK_Go() -- CPU_ReadMem(4 bytes @ 0xE0001000) (0002ms, 0747ms total)
T2FB0 001:071 JLINK_IsHalted()  returns FALSE (0001ms, 0748ms total)
T2FB0 001:075 JLINK_IsHalted()  returns FALSE (0000ms, 0747ms total)
T2FB0 001:077 JLINK_IsHalted()  returns FALSE (0000ms, 0747ms total)
T2FB0 001:079 JLINK_IsHalted()  returns FALSE (0000ms, 0747ms total)
T2FB0 001:081 JLINK_IsHalted()  returns FALSE (0000ms, 0747ms total)
T2FB0 001:083 JLINK_IsHalted()  returns FALSE (0000ms, 0747ms total)
T2FB0 001:085 JLINK_IsHalted()  returns FALSE (0000ms, 0747ms total)
T2FB0 001:087 JLINK_IsHalted()  returns FALSE (0000ms, 0747ms total)
T2FB0 001:089 JLINK_IsHalted()  returns FALSE (0000ms, 0747ms total)
T2FB0 001:091 JLINK_IsHalted()  returns FALSE (0000ms, 0747ms total)
T2FB0 001:093 JLINK_IsHalted()  returns FALSE (0000ms, 0747ms total)
T2FB0 001:103 JLINK_IsHalted() -- CPU_ReadMem(2 bytes @ 0x20000000)  returns TRUE (0003ms, 0750ms total)
T2FB0 001:106 JLINK_ReadReg(R15 (PC))  returns 0x20000000 (0000ms, 0747ms total)
T2FB0 001:106 JLINK_ClrBPEx(BPHandle = 0x00000008)  returns 0x00 (0000ms, 0747ms total)
T2FB0 001:106 JLINK_ReadReg(R0)  returns 0x00000000 (0000ms, 0747ms total)
T2FB0 001:107 JLINK_WriteMem(0x20000164, 0x0400 Bytes, ...) - Data: 0C 07 4F F0 04 0C 0C FA 06 FC 00 E0 05 E0 47 EA ... -- CPU_WriteMem(1024 bytes @ 0x20000164)  returns 0x400 (0013ms, 0760ms total)
T2FB0 001:120 JLINK_WriteReg(R0, 0x08001000)  returns 0x00 (0000ms, 0760ms total)
T2FB0 001:120 JLINK_WriteReg(R1, 0x00000400)  returns 0x00 (0000ms, 0760ms total)
T2FB0 001:120 JLINK_WriteReg(R2, 0x20000164)  returns 0x00 (0000ms, 0760ms total)
T2FB0 001:120 JLINK_WriteReg(R3, 0x00000000)  returns 0x00 (0000ms, 0760ms total)
T2FB0 001:120 JLINK_WriteReg(R4, 0x00000000)  returns 0x00 (0000ms, 0760ms total)
T2FB0 001:120 JLINK_WriteReg(R5, 0x00000000)  returns 0x00 (0000ms, 0760ms total)
T2FB0 001:120 JLINK_WriteReg(R6, 0x00000000)  returns 0x00 (0000ms, 0760ms total)
T2FB0 001:120 JLINK_WriteReg(R7, 0x00000000)  returns 0x00 (0000ms, 0760ms total)
T2FB0 001:120 JLINK_WriteReg(R8, 0x00000000)  returns 0x00 (0000ms, 0760ms total)
T2FB0 001:120 JLINK_WriteReg(R9, 0x20000160)  returns 0x00 (0000ms, 0760ms total)
T2FB0 001:120 JLINK_WriteReg(R10, 0x00000000)  returns 0x00 (0000ms, 0760ms total)
T2FB0 001:120 JLINK_WriteReg(R11, 0x00000000)  returns 0x00 (0000ms, 0760ms total)
T2FB0 001:120 JLINK_WriteReg(R12, 0x00000000)  returns 0x00 (0000ms, 0760ms total)
T2FB0 001:120 JLINK_WriteReg(R13 (SP), 0x20001000)  returns 0x00 (0000ms, 0760ms total)
T2FB0 001:120 JLINK_WriteReg(R14, 0x20000001)  returns 0x00 (0000ms, 0760ms total)
T2FB0 001:120 JLINK_WriteReg(R15 (PC), 0x200000F4)  returns 0x00 (0000ms, 0760ms total)
T2FB0 001:120 JLINK_WriteReg(XPSR, 0x01000000)  returns 0x00 (0000ms, 0760ms total)
T2FB0 001:120 JLINK_WriteReg(MSP, 0x20001000)  returns 0x00 (0000ms, 0760ms total)
T2FB0 001:120 JLINK_WriteReg(PSP, 0x20001000)  returns 0x00 (0000ms, 0760ms total)
T2FB0 001:120 JLINK_WriteReg(CFBP, 0x00000000)  returns 0x00 (0000ms, 0760ms total)
T2FB0 001:120 JLINK_SetBPEx(Addr = 0x20000000, Type = 0xFFFFFFF2)  returns 0x00000009 (0000ms, 0760ms total)
T2FB0 001:120 JLINK_Go() -- CPU_ReadMem(4 bytes @ 0xE0001000) (0002ms, 0762ms total)
T2FB0 001:122 JLINK_IsHalted()  returns FALSE (0001ms, 0763ms total)
T2FB0 001:127 JLINK_IsHalted()  returns FALSE (0000ms, 0762ms total)
T2FB0 001:129 JLINK_IsHalted()  returns FALSE (0000ms, 0762ms total)
T2FB0 001:131 JLINK_IsHalted()  returns FALSE (0000ms, 0762ms total)
T2FB0 001:133 JLINK_IsHalted()  returns FALSE (0000ms, 0762ms total)
T2FB0 001:135 JLINK_IsHalted()  returns FALSE (0000ms, 0762ms total)
T2FB0 001:138 JLINK_IsHalted()  returns FALSE (0000ms, 0762ms total)
T2FB0 001:140 JLINK_IsHalted()  returns FALSE (0000ms, 0762ms total)
T2FB0 001:142 JLINK_IsHalted()  returns FALSE (0000ms, 0762ms total)
T2FB0 001:144 JLINK_IsHalted()  returns FALSE (0000ms, 0762ms total)
T2FB0 001:146 JLINK_IsHalted()  returns FALSE (0000ms, 0762ms total)
T2FB0 001:148 JLINK_IsHalted()  returns FALSE (0000ms, 0762ms total)
T2FB0 001:150 JLINK_IsHalted()  returns FALSE (0000ms, 0762ms total)
T2FB0 001:152 JLINK_IsHalted()  returns FALSE (0000ms, 0762ms total)
T2FB0 001:154 JLINK_IsHalted() -- CPU_ReadMem(2 bytes @ 0x20000000)  returns TRUE (0004ms, 0766ms total)
T2FB0 001:158 JLINK_ReadReg(R15 (PC))  returns 0x20000000 (0000ms, 0762ms total)
T2FB0 001:158 JLINK_ClrBPEx(BPHandle = 0x00000009)  returns 0x00 (0000ms, 0762ms total)
T2FB0 001:158 JLINK_ReadReg(R0)  returns 0x00000000 (0000ms, 0762ms total)
T2FB0 001:164 JLINK_WriteMem(0x20000164, 0x0400 Bytes, ...) - Data: 08 B1 00 F0 05 F8 01 48 00 68 00 BD A0 02 00 20 ... -- CPU_WriteMem(1024 bytes @ 0x20000164)  returns 0x400 (0012ms, 0774ms total)
T2FB0 001:176 JLINK_WriteReg(R0, 0x08001400)  returns 0x00 (0000ms, 0774ms total)
T2FB0 001:176 JLINK_WriteReg(R1, 0x00000400)  returns 0x00 (0000ms, 0774ms total)
T2FB0 001:176 JLINK_WriteReg(R2, 0x20000164)  returns 0x00 (0000ms, 0774ms total)
T2FB0 001:176 JLINK_WriteReg(R3, 0x00000000)  returns 0x00 (0000ms, 0774ms total)
T2FB0 001:176 JLINK_WriteReg(R4, 0x00000000)  returns 0x00 (0000ms, 0774ms total)
T2FB0 001:176 JLINK_WriteReg(R5, 0x00000000)  returns 0x00 (0000ms, 0774ms total)
T2FB0 001:176 JLINK_WriteReg(R6, 0x00000000)  returns 0x00 (0000ms, 0774ms total)
T2FB0 001:176 JLINK_WriteReg(R7, 0x00000000)  returns 0x00 (0000ms, 0774ms total)
T2FB0 001:176 JLINK_WriteReg(R8, 0x00000000)  returns 0x00 (0000ms, 0774ms total)
T2FB0 001:176 JLINK_WriteReg(R9, 0x20000160)  returns 0x00 (0000ms, 0774ms total)
T2FB0 001:176 JLINK_WriteReg(R10, 0x00000000)  returns 0x00 (0000ms, 0774ms total)
T2FB0 001:176 JLINK_WriteReg(R11, 0x00000000)  returns 0x00 (0000ms, 0774ms total)
T2FB0 001:176 JLINK_WriteReg(R12, 0x00000000)  returns 0x00 (0000ms, 0774ms total)
T2FB0 001:176 JLINK_WriteReg(R13 (SP), 0x20001000)  returns 0x00 (0000ms, 0774ms total)
T2FB0 001:176 JLINK_WriteReg(R14, 0x20000001)  returns 0x00 (0000ms, 0774ms total)
T2FB0 001:176 JLINK_WriteReg(R15 (PC), 0x200000F4)  returns 0x00 (0000ms, 0774ms total)
T2FB0 001:176 JLINK_WriteReg(XPSR, 0x01000000)  returns 0x00 (0000ms, 0774ms total)
T2FB0 001:176 JLINK_WriteReg(MSP, 0x20001000)  returns 0x00 (0000ms, 0774ms total)
T2FB0 001:177 JLINK_WriteReg(PSP, 0x20001000)  returns 0x00 (0000ms, 0774ms total)
T2FB0 001:177 JLINK_WriteReg(CFBP, 0x00000000)  returns 0x00 (0000ms, 0774ms total)
T2FB0 001:177 JLINK_SetBPEx(Addr = 0x20000000, Type = 0xFFFFFFF2)  returns 0x0000000A (0000ms, 0774ms total)
T2FB0 001:177 JLINK_Go() -- CPU_ReadMem(4 bytes @ 0xE0001000) (0002ms, 0776ms total)
T2FB0 001:179 JLINK_IsHalted()  returns FALSE (0001ms, 0777ms total)
T2FB0 001:187 JLINK_IsHalted()  returns FALSE (0000ms, 0776ms total)
T2FB0 001:189 JLINK_IsHalted()  returns FALSE (0000ms, 0776ms total)
T2FB0 001:191 JLINK_IsHalted()  returns FALSE (0000ms, 0776ms total)
T2FB0 001:193 JLINK_IsHalted()  returns FALSE (0000ms, 0776ms total)
T2FB0 001:195 JLINK_IsHalted()  returns FALSE (0000ms, 0776ms total)
T2FB0 001:205 JLINK_IsHalted()  returns FALSE (0000ms, 0776ms total)
T2FB0 001:207 JLINK_IsHalted()  returns FALSE (0000ms, 0776ms total)
T2FB0 001:209 JLINK_IsHalted()  returns FALSE (0000ms, 0776ms total)
T2FB0 001:211 JLINK_IsHalted() -- CPU_ReadMem(2 bytes @ 0x20000000)  returns TRUE (0003ms, 0779ms total)
T2FB0 001:214 JLINK_ReadReg(R15 (PC))  returns 0x20000000 (0000ms, 0776ms total)
T2FB0 001:214 JLINK_ClrBPEx(BPHandle = 0x0000000A)  returns 0x00 (0001ms, 0777ms total)
T2FB0 001:215 JLINK_ReadReg(R0)  returns 0x00000000 (0000ms, 0777ms total)
T2FB0 001:215 JLINK_WriteMem(0x20000164, 0x0400 Bytes, ...) - Data: B0 EB 81 0F ED D1 20 48 00 68 00 F0 07 00 A8 42 ... -- CPU_WriteMem(1024 bytes @ 0x20000164)  returns 0x400 (0013ms, 0790ms total)
T2FB0 001:228 JLINK_WriteReg(R0, 0x08001800)  returns 0x00 (0000ms, 0790ms total)
T2FB0 001:228 JLINK_WriteReg(R1, 0x00000400)  returns 0x00 (0000ms, 0790ms total)
T2FB0 001:228 JLINK_WriteReg(R2, 0x20000164)  returns 0x00 (0000ms, 0790ms total)
T2FB0 001:228 JLINK_WriteReg(R3, 0x00000000)  returns 0x00 (0000ms, 0790ms total)
T2FB0 001:228 JLINK_WriteReg(R4, 0x00000000)  returns 0x00 (0000ms, 0790ms total)
T2FB0 001:228 JLINK_WriteReg(R5, 0x00000000)  returns 0x00 (0000ms, 0790ms total)
T2FB0 001:228 JLINK_WriteReg(R6, 0x00000000)  returns 0x00 (0001ms, 0791ms total)
T2FB0 001:229 JLINK_WriteReg(R7, 0x00000000)  returns 0x00 (0000ms, 0791ms total)
T2FB0 001:229 JLINK_WriteReg(R8, 0x00000000)  returns 0x00 (0000ms, 0791ms total)
T2FB0 001:229 JLINK_WriteReg(R9, 0x20000160)  returns 0x00 (0000ms, 0791ms total)
T2FB0 001:229 JLINK_WriteReg(R10, 0x00000000)  returns 0x00 (0000ms, 0791ms total)
T2FB0 001:229 JLINK_WriteReg(R11, 0x00000000)  returns 0x00 (0000ms, 0791ms total)
T2FB0 001:229 JLINK_WriteReg(R12, 0x00000000)  returns 0x00 (0000ms, 0791ms total)
T2FB0 001:229 JLINK_WriteReg(R13 (SP), 0x20001000)  returns 0x00 (0000ms, 0791ms total)
T2FB0 001:229 JLINK_WriteReg(R14, 0x20000001)  returns 0x00 (0000ms, 0791ms total)
T2FB0 001:229 JLINK_WriteReg(R15 (PC), 0x200000F4)  returns 0x00 (0000ms, 0791ms total)
T2FB0 001:229 JLINK_WriteReg(XPSR, 0x01000000)  returns 0x00 (0000ms, 0791ms total)
T2FB0 001:229 JLINK_WriteReg(MSP, 0x20001000)  returns 0x00 (0000ms, 0791ms total)
T2FB0 001:229 JLINK_WriteReg(PSP, 0x20001000)  returns 0x00 (0000ms, 0791ms total)
T2FB0 001:229 JLINK_WriteReg(CFBP, 0x00000000)  returns 0x00 (0000ms, 0791ms total)
T2FB0 001:229 JLINK_SetBPEx(Addr = 0x20000000, Type = 0xFFFFFFF2)  returns 0x0000000B (0000ms, 0791ms total)
T2FB0 001:229 JLINK_Go() -- CPU_ReadMem(4 bytes @ 0xE0001000) (0004ms, 0795ms total)
T2FB0 001:233 JLINK_IsHalted()  returns FALSE (0001ms, 0796ms total)
T2FB0 001:237 JLINK_IsHalted()  returns FALSE (0000ms, 0795ms total)
T2FB0 001:239 JLINK_IsHalted()  returns FALSE (0000ms, 0795ms total)
T2FB0 001:241 JLINK_IsHalted()  returns FALSE (0000ms, 0795ms total)
T2FB0 001:243 JLINK_IsHalted()  returns FALSE (0000ms, 0795ms total)
T2FB0 001:245 JLINK_IsHalted()  returns FALSE (0000ms, 0795ms total)
T2FB0 001:247 JLINK_IsHalted()  returns FALSE (0000ms, 0795ms total)
T2FB0 001:249 JLINK_IsHalted()  returns FALSE (0000ms, 0795ms total)
T2FB0 001:251 JLINK_IsHalted()  returns FALSE (0000ms, 0795ms total)
T2FB0 001:253 JLINK_IsHalted()  returns FALSE (0000ms, 0795ms total)
T2FB0 001:255 JLINK_IsHalted()  returns FALSE (0000ms, 0795ms total)
T2FB0 001:257 JLINK_IsHalted()  returns FALSE (0000ms, 0795ms total)
T2FB0 001:259 JLINK_IsHalted()  returns FALSE (0000ms, 0795ms total)
T2FB0 001:262 JLINK_IsHalted()  returns FALSE (0000ms, 0795ms total)
T2FB0 001:264 JLINK_IsHalted()  returns FALSE (0000ms, 0795ms total)
T2FB0 001:266 JLINK_IsHalted() -- CPU_ReadMem(2 bytes @ 0x20000000)  returns TRUE (0004ms, 0799ms total)
T2FB0 001:270 JLINK_ReadReg(R15 (PC))  returns 0x20000000 (0000ms, 0795ms total)
T2FB0 001:270 JLINK_ClrBPEx(BPHandle = 0x0000000B)  returns 0x00 (0000ms, 0795ms total)
T2FB0 001:270 JLINK_ReadReg(R0)  returns 0x00000000 (0000ms, 0795ms total)
T2FB0 001:270 JLINK_WriteMem(0x20000164, 0x0400 Bytes, ...) - Data: 03 20 47 E7 9F 48 00 68 00 F0 02 00 00 28 F2 D0 ... -- CPU_WriteMem(1024 bytes @ 0x20000164)  returns 0x400 (0013ms, 0808ms total)
T2FB0 001:283 JLINK_WriteReg(R0, 0x08001C00)  returns 0x00 (0000ms, 0808ms total)
T2FB0 001:283 JLINK_WriteReg(R1, 0x00000400)  returns 0x00 (0000ms, 0808ms total)
T2FB0 001:283 JLINK_WriteReg(R2, 0x20000164)  returns 0x00 (0000ms, 0808ms total)
T2FB0 001:283 JLINK_WriteReg(R3, 0x00000000)  returns 0x00 (0000ms, 0808ms total)
T2FB0 001:283 JLINK_WriteReg(R4, 0x00000000)  returns 0x00 (0000ms, 0808ms total)
T2FB0 001:283 JLINK_WriteReg(R5, 0x00000000)  returns 0x00 (0000ms, 0808ms total)
T2FB0 001:283 JLINK_WriteReg(R6, 0x00000000)  returns 0x00 (0000ms, 0808ms total)
T2FB0 001:283 JLINK_WriteReg(R7, 0x00000000)  returns 0x00 (0000ms, 0808ms total)
T2FB0 001:283 JLINK_WriteReg(R8, 0x00000000)  returns 0x00 (0000ms, 0808ms total)
T2FB0 001:283 JLINK_WriteReg(R9, 0x20000160)  returns 0x00 (0000ms, 0808ms total)
T2FB0 001:283 JLINK_WriteReg(R10, 0x00000000)  returns 0x00 (0000ms, 0808ms total)
T2FB0 001:283 JLINK_WriteReg(R11, 0x00000000)  returns 0x00 (0000ms, 0808ms total)
T2FB0 001:283 JLINK_WriteReg(R12, 0x00000000)  returns 0x00 (0000ms, 0808ms total)
T2FB0 001:283 JLINK_WriteReg(R13 (SP), 0x20001000)  returns 0x00 (0000ms, 0808ms total)
T2FB0 001:283 JLINK_WriteReg(R14, 0x20000001)  returns 0x00 (0000ms, 0808ms total)
T2FB0 001:283 JLINK_WriteReg(R15 (PC), 0x200000F4)  returns 0x00 (0000ms, 0808ms total)
T2FB0 001:283 JLINK_WriteReg(XPSR, 0x01000000)  returns 0x00 (0000ms, 0808ms total)
T2FB0 001:283 JLINK_WriteReg(MSP, 0x20001000)  returns 0x00 (0000ms, 0808ms total)
T2FB0 001:283 JLINK_WriteReg(PSP, 0x20001000)  returns 0x00 (0000ms, 0808ms total)
T2FB0 001:283 JLINK_WriteReg(CFBP, 0x00000000)  returns 0x00 (0000ms, 0808ms total)
T2FB0 001:283 JLINK_SetBPEx(Addr = 0x20000000, Type = 0xFFFFFFF2)  returns 0x0000000C (0000ms, 0808ms total)
T2FB0 001:283 JLINK_Go() -- CPU_ReadMem(4 bytes @ 0xE0001000) (0003ms, 0811ms total)
T2FB0 001:286 JLINK_IsHalted()  returns FALSE (0000ms, 0811ms total)
T2FB0 001:291 JLINK_IsHalted()  returns FALSE (0000ms, 0811ms total)
T2FB0 001:294 JLINK_IsHalted()  returns FALSE (0000ms, 0811ms total)
T2FB0 001:296 JLINK_IsHalted()  returns FALSE (0000ms, 0811ms total)
T2FB0 001:298 JLINK_IsHalted()  returns FALSE (0000ms, 0811ms total)
T2FB0 001:300 JLINK_IsHalted()  returns FALSE (0000ms, 0811ms total)
T2FB0 001:302 JLINK_IsHalted()  returns FALSE (0000ms, 0811ms total)
T2FB0 001:304 JLINK_IsHalted()  returns FALSE (0000ms, 0811ms total)
T2FB0 001:314 JLINK_IsHalted()  returns FALSE (0000ms, 0811ms total)
T2FB0 001:316 JLINK_IsHalted()  returns FALSE (0000ms, 0811ms total)
T2FB0 001:318 JLINK_IsHalted() -- CPU_ReadMem(2 bytes @ 0x20000000)  returns TRUE (0004ms, 0815ms total)
T2FB0 001:322 JLINK_ReadReg(R15 (PC))  returns 0x20000000 (0000ms, 0811ms total)
T2FB0 001:322 JLINK_ClrBPEx(BPHandle = 0x0000000C)  returns 0x00 (0000ms, 0811ms total)
T2FB0 001:322 JLINK_ReadReg(R0)  returns 0x00000000 (0000ms, 0811ms total)
T2FB0 001:322 JLINK_WriteMem(0x20000164, 0x0400 Bytes, ...) - Data: 18 B1 20 6C 40 F0 08 00 20 64 20 6C 68 B3 05 F0 ... -- CPU_WriteMem(1024 bytes @ 0x20000164)  returns 0x400 (0013ms, 0824ms total)
T2FB0 001:335 JLINK_WriteReg(R0, 0x08002000)  returns 0x00 (0000ms, 0824ms total)
T2FB0 001:335 JLINK_WriteReg(R1, 0x00000400)  returns 0x00 (0000ms, 0824ms total)
T2FB0 001:335 JLINK_WriteReg(R2, 0x20000164)  returns 0x00 (0000ms, 0824ms total)
T2FB0 001:335 JLINK_WriteReg(R3, 0x00000000)  returns 0x00 (0000ms, 0824ms total)
T2FB0 001:335 JLINK_WriteReg(R4, 0x00000000)  returns 0x00 (0000ms, 0824ms total)
T2FB0 001:335 JLINK_WriteReg(R5, 0x00000000)  returns 0x00 (0000ms, 0824ms total)
T2FB0 001:335 JLINK_WriteReg(R6, 0x00000000)  returns 0x00 (0001ms, 0825ms total)
T2FB0 001:336 JLINK_WriteReg(R7, 0x00000000)  returns 0x00 (0000ms, 0825ms total)
T2FB0 001:336 JLINK_WriteReg(R8, 0x00000000)  returns 0x00 (0000ms, 0825ms total)
T2FB0 001:336 JLINK_WriteReg(R9, 0x20000160)  returns 0x00 (0000ms, 0825ms total)
T2FB0 001:336 JLINK_WriteReg(R10, 0x00000000)  returns 0x00 (0000ms, 0825ms total)
T2FB0 001:336 JLINK_WriteReg(R11, 0x00000000)  returns 0x00 (0000ms, 0825ms total)
T2FB0 001:336 JLINK_WriteReg(R12, 0x00000000)  returns 0x00 (0000ms, 0825ms total)
T2FB0 001:336 JLINK_WriteReg(R13 (SP), 0x20001000)  returns 0x00 (0000ms, 0825ms total)
T2FB0 001:336 JLINK_WriteReg(R14, 0x20000001)  returns 0x00 (0000ms, 0825ms total)
T2FB0 001:336 JLINK_WriteReg(R15 (PC), 0x200000F4)  returns 0x00 (0000ms, 0825ms total)
T2FB0 001:336 JLINK_WriteReg(XPSR, 0x01000000)  returns 0x00 (0000ms, 0825ms total)
T2FB0 001:336 JLINK_WriteReg(MSP, 0x20001000)  returns 0x00 (0000ms, 0825ms total)
T2FB0 001:336 JLINK_WriteReg(PSP, 0x20001000)  returns 0x00 (0000ms, 0825ms total)
T2FB0 001:336 JLINK_WriteReg(CFBP, 0x00000000)  returns 0x00 (0000ms, 0825ms total)
T2FB0 001:336 JLINK_SetBPEx(Addr = 0x20000000, Type = 0xFFFFFFF2)  returns 0x0000000D (0000ms, 0825ms total)
T2FB0 001:336 JLINK_Go() -- CPU_ReadMem(4 bytes @ 0xE0001000) (0002ms, 0827ms total)
T2FB0 001:338 JLINK_IsHalted()  returns FALSE (0001ms, 0828ms total)
T2FB0 001:341 JLINK_IsHalted()  returns FALSE (0000ms, 0827ms total)
T2FB0 001:343 JLINK_IsHalted()  returns FALSE (0000ms, 0827ms total)
T2FB0 001:345 JLINK_IsHalted()  returns FALSE (0000ms, 0827ms total)
T2FB0 001:348 JLINK_IsHalted()  returns FALSE (0000ms, 0827ms total)
T2FB0 001:349 JLINK_IsHalted()  returns FALSE (0001ms, 0828ms total)
T2FB0 001:352 JLINK_IsHalted()  returns FALSE (0000ms, 0827ms total)
T2FB0 001:357 JLINK_IsHalted()  returns FALSE (0000ms, 0827ms total)
T2FB0 001:359 JLINK_IsHalted()  returns FALSE (0000ms, 0827ms total)
T2FB0 001:361 JLINK_IsHalted()  returns FALSE (0000ms, 0827ms total)
T2FB0 001:363 JLINK_IsHalted()  returns FALSE (0000ms, 0827ms total)
T2FB0 001:366 JLINK_IsHalted()  returns FALSE (0000ms, 0827ms total)
T2FB0 001:374 JLINK_IsHalted() -- CPU_ReadMem(2 bytes @ 0x20000000)  returns TRUE (0004ms, 0831ms total)
T2FB0 001:378 JLINK_ReadReg(R15 (PC))  returns 0x20000000 (0000ms, 0827ms total)
T2FB0 001:378 JLINK_ClrBPEx(BPHandle = 0x0000000D)  returns 0x00 (0000ms, 0827ms total)
T2FB0 001:378 JLINK_ReadReg(R0)  returns 0x00000000 (0000ms, 0827ms total)
T2FB0 001:378 JLINK_WriteMem(0x20000164, 0x0400 Bytes, ...) - Data: 4F F4 7A 72 B1 FB F2 F1 41 43 00 91 00 BF 00 BF ... -- CPU_WriteMem(1024 bytes @ 0x20000164)  returns 0x400 (0013ms, 0840ms total)
T2FB0 001:391 JLINK_WriteReg(R0, 0x08002400)  returns 0x00 (0000ms, 0840ms total)
T2FB0 001:391 JLINK_WriteReg(R1, 0x00000400)  returns 0x00 (0000ms, 0840ms total)
T2FB0 001:391 JLINK_WriteReg(R2, 0x20000164)  returns 0x00 (0000ms, 0840ms total)
T2FB0 001:391 JLINK_WriteReg(R3, 0x00000000)  returns 0x00 (0000ms, 0840ms total)
T2FB0 001:391 JLINK_WriteReg(R4, 0x00000000)  returns 0x00 (0000ms, 0840ms total)
T2FB0 001:391 JLINK_WriteReg(R5, 0x00000000)  returns 0x00 (0000ms, 0840ms total)
T2FB0 001:391 JLINK_WriteReg(R6, 0x00000000)  returns 0x00 (0000ms, 0840ms total)
T2FB0 001:391 JLINK_WriteReg(R7, 0x00000000)  returns 0x00 (0000ms, 0840ms total)
T2FB0 001:391 JLINK_WriteReg(R8, 0x00000000)  returns 0x00 (0000ms, 0840ms total)
T2FB0 001:391 JLINK_WriteReg(R9, 0x20000160)  returns 0x00 (0000ms, 0840ms total)
T2FB0 001:391 JLINK_WriteReg(R10, 0x00000000)  returns 0x00 (0000ms, 0840ms total)
T2FB0 001:391 JLINK_WriteReg(R11, 0x00000000)  returns 0x00 (0000ms, 0840ms total)
T2FB0 001:391 JLINK_WriteReg(R12, 0x00000000)  returns 0x00 (0000ms, 0840ms total)
T2FB0 001:391 JLINK_WriteReg(R13 (SP), 0x20001000)  returns 0x00 (0000ms, 0840ms total)
T2FB0 001:391 JLINK_WriteReg(R14, 0x20000001)  returns 0x00 (0000ms, 0840ms total)
T2FB0 001:391 JLINK_WriteReg(R15 (PC), 0x200000F4)  returns 0x00 (0000ms, 0840ms total)
T2FB0 001:391 JLINK_WriteReg(XPSR, 0x01000000)  returns 0x00 (0000ms, 0840ms total)
T2FB0 001:391 JLINK_WriteReg(MSP, 0x20001000)  returns 0x00 (0000ms, 0840ms total)
T2FB0 001:391 JLINK_WriteReg(PSP, 0x20001000)  returns 0x00 (0000ms, 0840ms total)
T2FB0 001:391 JLINK_WriteReg(CFBP, 0x00000000)  returns 0x00 (0000ms, 0840ms total)
T2FB0 001:391 JLINK_SetBPEx(Addr = 0x20000000, Type = 0xFFFFFFF2)  returns 0x0000000E (0000ms, 0840ms total)
T2FB0 001:391 JLINK_Go() -- CPU_ReadMem(4 bytes @ 0xE0001000) (0002ms, 0842ms total)
T2FB0 001:393 JLINK_IsHalted()  returns FALSE (0001ms, 0843ms total)
T2FB0 001:397 JLINK_IsHalted()  returns FALSE (0000ms, 0842ms total)
T2FB0 001:402 JLINK_IsHalted()  returns FALSE (0000ms, 0842ms total)
T2FB0 001:404 JLINK_IsHalted()  returns FALSE (0000ms, 0842ms total)
T2FB0 001:406 JLINK_IsHalted()  returns FALSE (0000ms, 0842ms total)
T2FB0 001:408 JLINK_IsHalted()  returns FALSE (0000ms, 0842ms total)
T2FB0 001:410 JLINK_IsHalted()  returns FALSE (0000ms, 0842ms total)
T2FB0 001:412 JLINK_IsHalted()  returns FALSE (0000ms, 0842ms total)
T2FB0 001:417 JLINK_IsHalted()  returns FALSE (0000ms, 0842ms total)
T2FB0 001:419 JLINK_IsHalted()  returns FALSE (0000ms, 0842ms total)
T2FB0 001:421 JLINK_IsHalted()  returns FALSE (0000ms, 0842ms total)
T2FB0 001:423 JLINK_IsHalted()  returns FALSE (0000ms, 0842ms total)
T2FB0 001:425 JLINK_IsHalted() -- CPU_ReadMem(2 bytes @ 0x20000000)  returns TRUE (0003ms, 0845ms total)
T2FB0 001:428 JLINK_ReadReg(R15 (PC))  returns 0x20000000 (0000ms, 0842ms total)
T2FB0 001:428 JLINK_ClrBPEx(BPHandle = 0x0000000E)  returns 0x00 (0001ms, 0843ms total)
T2FB0 001:429 JLINK_ReadReg(R0)  returns 0x00000000 (0000ms, 0843ms total)
T2FB0 001:429 JLINK_WriteMem(0x20000164, 0x0400 Bytes, ...) - Data: 00 20 FC E7 02 20 FA E7 70 B5 04 46 21 68 09 69 ... -- CPU_WriteMem(1024 bytes @ 0x20000164)  returns 0x400 (0013ms, 0856ms total)
T2FB0 001:442 JLINK_WriteReg(R0, 0x08002800)  returns 0x00 (0000ms, 0856ms total)
T2FB0 001:442 JLINK_WriteReg(R1, 0x00000400)  returns 0x00 (0000ms, 0856ms total)
T2FB0 001:442 JLINK_WriteReg(R2, 0x20000164)  returns 0x00 (0000ms, 0856ms total)
T2FB0 001:442 JLINK_WriteReg(R3, 0x00000000)  returns 0x00 (0000ms, 0856ms total)
T2FB0 001:442 JLINK_WriteReg(R4, 0x00000000)  returns 0x00 (0000ms, 0856ms total)
